
T2694 000:042 SEGGER J-Link V6.12f Log File (0000ms, 0028ms total)
T2694 000:042 DLL Compiled: Jan 13 2017 16:37:50 (0000ms, 0028ms total)
T2694 000:042 Logging started @ 2017-01-24 16:18 (0000ms, 0028ms total)
T2694 000:042 JLINK_SetWarnOutHandler(...) (0000ms, 0028ms total)
T2694 000:042 JLINK_OpenEx(...)
Firmware: J-Link V9 compiled Dec 16 2016 15:34:10
Hardware: V9.20
Feature(s): RDI, GDB, FlashDL, FlashBP, JFlash, RDDIWEBSRV Webserver running on local port 19080 (0022ms, 0050ms total)
T2694 000:042   returns O.K. (0022ms, 0050ms total)
T2694 000:064 JLINK_SetErrorOutHandler(...) (0000ms, 0050ms total)
T2694 000:064 JLINK_ExecCommand("ProjectFile = "C:\Users\laurence\Desktop\ECG3PRJ_LITE_SD\ECG3Code\MDK-ARM\JLinkSettings.ini"", ...). C:\NEXT\SOFTWARE\JLink_V612f\JLinkDevices.xml evaluated successfully.Device "STM32F427IG" selected.  returns 0x00 (0109ms, 0159ms total)
T2694 000:173 JLINK_ExecCommand("Device = STM32F427IGHx", ...). Device "STM32F427IG" selected.  returns 0x00 (0002ms, 0161ms total)
T2694 000:175 JLINK_ExecCommand("DisableConnectionTimeout", ...).   returns 0x01 (0000ms, 0161ms total)
T2694 000:175 JLINK_GetHardwareVersion()  returns 0x16760 (0000ms, 0161ms total)
T2694 000:175 JLINK_GetDLLVersion()  returns 61206 (0000ms, 0161ms total)
T2694 000:175 JLINK_GetFirmwareString(...) (0000ms, 0161ms total)
T2694 000:176 JLINK_GetDLLVersion()  returns 61206 (0000ms, 0161ms total)
T2694 000:176 JLINK_GetCompileDateTime() (0000ms, 0161ms total)
T2694 000:176 JLINK_GetFirmwareString(...) (0000ms, 0161ms total)
T2694 000:176 JLINK_GetHardwareVersion()  returns 0x16760 (0000ms, 0161ms total)
T2694 000:176 JLINK_TIF_Select(JLINKARM_TIF_SWD)  returns 0x00 (0002ms, 0163ms total)
T2694 000:178 JLINK_SetSpeed(5000) (0000ms, 0163ms total)
T2694 000:178 JLINK_GetId() >0x108 TIF>Found SWD-DP with ID 0x2BA01477 >0x0D TIF> >0x28 TIF> >0x0D TIF> >0x28 TIF> >0x0D TIF> >0x28 TIF> >0x0D TIF> >0x28 TIF> >0x0D TIF> >0x21 TIF> >0x0D TIF> >0x28 TIF> >0x0D TIF> >0x28 TIF> >0x0D TIF> >0x28 TIF> >0x0D TIF> >0x21 TIF> >0x0D TIF> >0x21 TIF> >0x0D TIF> >0x28 TIF> >0x0D TIF> >0x21 TIF> >0x0D TIF> >0x21 TIF> >0x0D TIF> >0x28 TIF> >0x0D TIF> >0x21 TIF> >0x0D TIF> >0x21 TIF> >0x0D TIF> >0x28 TIF> >0x0D TIF> >0x21 TIF> >0x0D TIF> >0x21 TIF> >0x0D TIF>
 >0x28 TIF> >0x0D TIF> >0x21 TIF> >0x0D TIF> >0x21 TIF> >0x0D TIF> >0x28 TIF> >0x0D TIF> >0x21 TIF> >0x0D TIF> >0x21 TIF> >0x0D TIF> >0x28 TIF> >0x0D TIF> >0x21 TIF> >0x0D TIF> >0x21 TIF> >0x108 TIF>Found SWD-DP with ID 0x2BA01477 >0x0D TIF> >0x28 TIF> >0x0D TIF> >0x28 TIF> >0x0D TIF> >0x28 TIF> >0x0D TIF> >0x28 TIF> >0x0D TIF> >0x21 TIF> >0x0D TIF> >0x28 TIF> >0x0D TIF> >0x28 TIF> >0x0D TIF> >0x21 TIF> >0x0D TIF> >0x21 TIF> >0x0D TIF> >0x21 TIF>AP-IDR: 0x24770011, Type: AHB-AP
AHB-AP ROM: 0xE00FF000 (Base addr. of first ROM table) >0x0D TIF> >0x28 TIF> >0x0D TIF> >0x28 TIF> >0x0D TIF> >0x28 TIF> >0x0D TIF> >0x21 TIF> >0x0D TIF> >0x21 TIF> >0x0D TIF> >0x28 TIF> >0x0D TIF> >0x21 TIF> >0x0D TIF> >0x21 TIF>Found Cortex-M4 r0p1, Little endian. -- CPU_ReadMem(4 bytes @ 0xE000EDF0) -- CPU_WriteMem(4 bytes @ 0xE000EDF0) -- CPU_ReadMem(4 bytes @ 0xE0002000)FPUnit: 6 code (BP) slots and 2 literal slots -- CPU_ReadMem(4 bytes @ 0xE000EDFC) -- CPU_WriteMem(4 bytes @ 0xE000EDFC)
 -- CPU_ReadMem(4 bytes @ 0xE0001000) -- CPU_WriteMem(4 bytes @ 0xE0001000) -- CPU_ReadMem(4 bytes @ 0xE000ED88) -- CPU_WriteMem(4 bytes @ 0xE000ED88) -- CPU_ReadMem(4 bytes @ 0xE000ED88) -- CPU_WriteMem(4 bytes @ 0xE000ED88)CoreSight components:ROMTbl 0 @ E00FF000 -- CPU_ReadMem(16 bytes @ 0xE00FF000) -- CPU_ReadMem(16 bytes @ 0xE000EFF0) -- CPU_ReadMem(16 bytes @ 0xE000EFE0)ROMTbl 0 [0]: FFF0F000, CID: B105E00D, PID: 000BB00C SCS -- CPU_ReadMem(16 bytes @ 0xE0001FF0)
 -- CPU_ReadMem(16 bytes @ 0xE0001FE0)ROMTbl 0 [1]: FFF02000, CID: B105E00D, PID: 003BB002 DWT -- CPU_ReadMem(16 bytes @ 0xE0002FF0) -- CPU_ReadMem(16 bytes @ 0xE0002FE0)ROMTbl 0 [2]: FFF03000, CID: B105E00D, PID: 002BB003 FPB -- CPU_ReadMem(16 bytes @ 0xE0000FF0) -- CPU_ReadMem(16 bytes @ 0xE0000FE0)ROMTbl 0 [3]: FFF01000, CID: B105E00D, PID: 003BB001 ITM -- CPU_ReadMem(16 bytes @ 0xE00FF010) -- CPU_ReadMem(16 bytes @ 0xE0040FF0) -- CPU_ReadMem(16 bytes @ 0xE0040FE0)
ROMTbl 0 [4]: FFF41000, CID: B105900D, PID: 000BB9A1 TPIU -- CPU_ReadMem(16 bytes @ 0xE0041FF0) -- CPU_ReadMem(16 bytes @ 0xE0041FE0)ROMTbl 0 [5]: FFF42000, CID: B105900D, PID: 000BB925 ETM >0x0D TIF> >0x21 TIF>  returns 0x2BA01477 (0058ms, 0221ms total)
T2694 000:236 JLINK_GetDLLVersion()  returns 61206 (0000ms, 0221ms total)
T2694 000:236 JLINK_CORE_GetFound()  returns 0xE0000FF (0000ms, 0221ms total)
T2694 000:236 JLINK_GetDebugInfo(0x100) -- Value=0xE00FF000  returns 0x00 (0000ms, 0221ms total)
T2694 000:236 JLINK_ReadMem (0xE00FF000, 0x0020 Bytes, ...) -- CPU is running -- CPU_ReadMem(32 bytes @ 0xE00FF000) - Data: 03 F0 F0 FF 03 20 F0 FF 03 30 F0 FF 03 10 F0 FF ...  returns 0x00 (0001ms, 0222ms total)
T2694 000:237 JLINK_ReadMem (0xE000EFF0, 0x0010 Bytes, ...) -- CPU is running -- CPU_ReadMem(16 bytes @ 0xE000EFF0) - Data: 0D 00 00 00 E0 00 00 00 05 00 00 00 B1 00 00 00  returns 0x00 (0000ms, 0222ms total)
T2694 000:237 JLINK_ReadMem (0xE000EFD0, 0x0020 Bytes, ...) -- CPU is running -- CPU_ReadMem(32 bytes @ 0xE000EFD0) - Data: 04 00 00 00 00 00 00 00 00 00 00 00 00 00 00 00 ...  returns 0x00 (0001ms, 0223ms total)
T2694 000:238 JLINK_ReadMem (0xE0001FF0, 0x0010 Bytes, ...) -- CPU is running -- CPU_ReadMem(16 bytes @ 0xE0001FF0) - Data: 0D 00 00 00 E0 00 00 00 05 00 00 00 B1 00 00 00  returns 0x00 (0001ms, 0224ms total)
T2694 000:239 JLINK_ReadMem (0xE0001FD0, 0x0020 Bytes, ...) -- CPU is running -- CPU_ReadMem(32 bytes @ 0xE0001FD0) - Data: 04 00 00 00 00 00 00 00 00 00 00 00 00 00 00 00 ...  returns 0x00 (0000ms, 0224ms total)
T2694 000:239 JLINK_ReadMem (0xE0002FF0, 0x0010 Bytes, ...) -- CPU is running -- CPU_ReadMem(16 bytes @ 0xE0002FF0) - Data: 0D 00 00 00 E0 00 00 00 05 00 00 00 B1 00 00 00  returns 0x00 (0001ms, 0225ms total)
T2694 000:240 JLINK_ReadMem (0xE0002FD0, 0x0020 Bytes, ...) -- CPU is running -- CPU_ReadMem(32 bytes @ 0xE0002FD0) - Data: 04 00 00 00 00 00 00 00 00 00 00 00 00 00 00 00 ...  returns 0x00 (0001ms, 0226ms total)
T2694 000:241 JLINK_ReadMem (0xE0000FF0, 0x0010 Bytes, ...) -- CPU is running -- CPU_ReadMem(16 bytes @ 0xE0000FF0) - Data: 0D 00 00 00 E0 00 00 00 05 00 00 00 B1 00 00 00  returns 0x00 (0001ms, 0227ms total)
T2694 000:242 JLINK_ReadMem (0xE0000FD0, 0x0020 Bytes, ...) -- CPU is running -- CPU_ReadMem(32 bytes @ 0xE0000FD0) - Data: 04 00 00 00 00 00 00 00 00 00 00 00 00 00 00 00 ...  returns 0x00 (0000ms, 0227ms total)
T2694 000:242 JLINK_ReadMem (0xE0040FF0, 0x0010 Bytes, ...) -- CPU is running -- CPU_ReadMem(16 bytes @ 0xE0040FF0) - Data: 0D 00 00 00 90 00 00 00 05 00 00 00 B1 00 00 00  returns 0x00 (0001ms, 0228ms total)
T2694 000:243 JLINK_ReadMem (0xE0040FD0, 0x0020 Bytes, ...) -- CPU is running -- CPU_ReadMem(32 bytes @ 0xE0040FD0) - Data: 04 00 00 00 00 00 00 00 00 00 00 00 00 00 00 00 ...  returns 0x00 (0000ms, 0228ms total)
T2694 000:243 JLINK_ReadMem (0xE0041FF0, 0x0010 Bytes, ...) -- CPU is running -- CPU_ReadMem(16 bytes @ 0xE0041FF0) - Data: 0D 00 00 00 90 00 00 00 05 00 00 00 B1 00 00 00  returns 0x00 (0000ms, 0228ms total)
T2694 000:243 JLINK_ReadMem (0xE0041FD0, 0x0020 Bytes, ...) -- CPU is running -- CPU_ReadMem(32 bytes @ 0xE0041FD0) - Data: 04 00 00 00 00 00 00 00 00 00 00 00 00 00 00 00 ...  returns 0x00 (0001ms, 0229ms total)
T2694 000:244 JLINK_ReadMemU32(0xE000EF40, 0x0001 Items, ...) -- CPU is running -- CPU_ReadMem(4 bytes @ 0xE000EF40) - Data: 21 00 11 10  returns 0x01 (0001ms, 0230ms total)
T2694 000:245 JLINK_ReadMemU32(0xE000EF44, 0x0001 Items, ...) -- CPU is running -- CPU_ReadMem(4 bytes @ 0xE000EF44) - Data: 11 00 00 11  returns 0x01 (0000ms, 0230ms total)
T2694 000:245 JLINK_ReadMemU32(0xE000ED00, 0x0001 Items, ...) -- CPU is running -- CPU_ReadMem(4 bytes @ 0xE000ED00) - Data: 41 C2 0F 41  returns 0x01 (0001ms, 0231ms total)
T2694 000:246 JLINK_SetResetType(JLINKARM_CM3_RESET_TYPE_NORMAL)  returns JLINKARM_CM3_RESET_TYPE_NORMAL (0000ms, 0231ms total)
T2694 000:246 JLINK_Reset() -- CPU is running -- CPU_WriteMem(4 bytes @ 0xE000EDF0) -- CPU is running -- CPU_WriteMem(4 bytes @ 0xE000EDFC) >0x35 TIF> -- CPU is running -- CPU_WriteMem(4 bytes @ 0xE000ED0C) -- CPU is running -- CPU_ReadMem(4 bytes @ 0xE000EDF0) -- CPU is running -- CPU_ReadMem(4 bytes @ 0xE000EDF0) -- CPU is running -- CPU_WriteMem(4 bytes @ 0xE000EDF0) -- CPU is running -- CPU_WriteMem(4 bytes @ 0xE000EDFC) -- CPU is running -- CPU_ReadMem(4 bytes @ 0xE000EDF0)
 -- CPU_WriteMem(4 bytes @ 0xE0002000) -- CPU_ReadMem(4 bytes @ 0xE000EDFC) -- CPU_ReadMem(4 bytes @ 0xE0001000) (0018ms, 0249ms total)
T2694 000:264 JLINK_ReadReg(R15 (PC))  returns 0x1FFF5162 (0000ms, 0249ms total)
T2694 000:264 JLINK_ReadReg(XPSR)  returns 0x01000000 (0000ms, 0249ms total)
T2694 000:264 JLINK_Halt()  returns 0x00 (0000ms, 0249ms total)
T2694 000:264 JLINK_IsHalted()  returns TRUE (0000ms, 0249ms total)
T2694 000:264 JLINK_ReadMemU32(0xE000EDF0, 0x0001 Items, ...) -- CPU_ReadMem(4 bytes @ 0xE000EDF0) - Data: 03 00 03 00  returns 0x01 (0000ms, 0249ms total)
T2694 000:264 JLINK_WriteU32(0xE000EDF0, 0xA05F0003) -- CPU_WriteMem(4 bytes @ 0xE000EDF0)  returns 0x00 (0001ms, 0250ms total)
T2694 000:265 JLINK_WriteU32(0xE000EDFC, 0x01000000) -- CPU_WriteMem(4 bytes @ 0xE000EDFC)  returns 0x00 (0000ms, 0250ms total)
T2694 000:266 JLINK_GetHWStatus(...)  returns 0x00 (0000ms, 0250ms total)
T2694 000:266 JLINK_GetNumBPUnits(Type = 0xFFFFFF00)  returns 0x06 (0000ms, 0250ms total)
T2694 000:266 JLINK_GetNumBPUnits(Type = 0xF0)  returns 0x2000 (0000ms, 0250ms total)
T2694 000:266 JLINK_GetNumWPUnits()  returns 0x04 (0000ms, 0250ms total)
T2694 000:266 JLINK_GetSpeed()  returns 0xFA0 (0000ms, 0250ms total)
T2694 000:267 JLINK_ReadMemU32(0xE000E004, 0x0001 Items, ...) -- CPU_ReadMem(4 bytes @ 0xE000E004) - Data: 02 00 00 00  returns 0x01 (0000ms, 0250ms total)
T2694 000:267 JLINK_ReadMemU32(0xE000E004, 0x0001 Items, ...) -- CPU_ReadMem(4 bytes @ 0xE000E004) - Data: 02 00 00 00  returns 0x01 (0001ms, 0251ms total)
T2694 000:268 JLINK_WriteMem(0xE0001000, 0x001C Bytes, ...) - Data: 01 00 00 00 00 00 00 00 00 00 00 00 00 00 00 00 ... -- CPU_WriteMem(28 bytes @ 0xE0001000)  returns 0x1C (0000ms, 0251ms total)
T2694 000:269 JLINK_ReadMem (0xE0001000, 0x001C Bytes, ...) -- CPU_ReadMem(28 bytes @ 0xE0001000) - Data: 01 00 00 40 00 00 00 00 00 00 00 00 00 00 00 00 ...  returns 0x00 (0000ms, 0252ms total)
T2694 000:269 JLINK_ReadReg(R15 (PC))  returns 0x1FFF5162 (0000ms, 0252ms total)
T2694 000:269 JLINK_ReadReg(XPSR)  returns 0x01000000 (0000ms, 0252ms total)
T2694 000:381 JLINK_SetResetType(JLINKARM_CM3_RESET_TYPE_NORMAL)  returns JLINKARM_CM3_RESET_TYPE_NORMAL (0000ms, 0252ms total)
T2694 000:382 JLINK_Reset() -- CPU_WriteMem(4 bytes @ 0xE000EDF0) -- CPU_WriteMem(4 bytes @ 0xE000EDFC) >0x35 TIF> -- CPU_WriteMem(4 bytes @ 0xE000ED0C) -- CPU_ReadMem(4 bytes @ 0xE000EDF0) -- CPU_ReadMem(4 bytes @ 0xE000EDF0) -- CPU_WriteMem(4 bytes @ 0xE000EDF0) -- CPU_WriteMem(4 bytes @ 0xE000EDFC) -- CPU is running -- CPU_ReadMem(4 bytes @ 0xE000EDF0) -- CPU_WriteMem(4 bytes @ 0xE0002000) -- CPU_ReadMem(4 bytes @ 0xE000EDFC) -- CPU_ReadMem(4 bytes @ 0xE0001000) (0019ms, 0271ms total)
T2694 000:401 JLINK_ReadReg(R15 (PC))  returns 0x1FFF5162 (0000ms, 0271ms total)
T2694 000:401 JLINK_ReadReg(XPSR)  returns 0x01000000 (0000ms, 0271ms total)
T2694 000:401 JLINK_ReadMem (0x1FFF5162, 0x0002 Bytes, ...) -- CPU_ReadMem(64 bytes @ 0x1FFF5140) -- Updating C cache (64 bytes @ 0x1FFF5140) -- Read from C cache (2 bytes @ 0x1FFF5162) - Data: C0 46  returns 0x00 (0002ms, 0273ms total)
T2694 000:403 JLINK_ReadMem (0x1FFF5164, 0x003C Bytes, ...) -- CPU_ReadMem(64 bytes @ 0x1FFF5180) -- Updating C cache (64 bytes @ 0x1FFF5180) -- Read from C cache (60 bytes @ 0x1FFF5164) - Data: C0 46 C0 46 C0 46 FF F7 E5 FF FD F7 7F B9 FF F7 ...  returns 0x00 (0001ms, 0274ms total)
T2694 000:506 JLINK_ReadMem (0x40013000, 0x0020 Bytes, ...) -- CPU_ReadMem(32 bytes @ 0x40013000) - Data: 00 00 00 00 00 00 00 00 00 00 00 00 00 00 00 00 ...  returns 0x00 (0001ms, 0275ms total)
T2694 000:507 JLINK_ReadMem (0x40013020, 0x0004 Bytes, ...) -- CPU_ReadMem(4 bytes @ 0x40013020) - Data: 00 00 00 00  returns 0x00 (0001ms, 0276ms total)
T2694 001:395 JLINK_ReadMem (0x08002B90, 0x003C Bytes, ...) -- CPU_ReadMem(128 bytes @ 0x08002B80) -- Updating C cache (128 bytes @ 0x08002B80) -- Read from C cache (60 bytes @ 0x08002B90) - Data: 03 22 00 21 45 20 FE F7 2F F9 45 20 FE F7 1F F9 ...  returns 0x00 (0000ms, 0276ms total)
T2694 001:546 JLINK_ReadMem (0x2000001D, 0x0001 Bytes, ...) -- CPU_ReadMem(64 bytes @ 0x20000000) -- Updating C cache (64 bytes @ 0x20000000) -- Read from C cache (1 bytes @ 0x2000001D) - Data: D1  returns 0x00 (0001ms, 0277ms total)
T2694 001:549 JLINK_ReadMem (0x20000004, 0x0004 Bytes, ...) -- Read from C cache (4 bytes @ 0x20000004) - Data: 0D 78 2D 06  returns 0x00 (0000ms, 0277ms total)
T2694 001:549 JLINK_ReadMem (0x20000008, 0x0004 Bytes, ...) -- Read from C cache (4 bytes @ 0x20000008) - Data: 68 40 08 24  returns 0x00 (0000ms, 0277ms total)
T2694 001:553 JLINK_ReadMem (0x200004D0, 0x0009 Bytes, ...) -- CPU_ReadMem(64 bytes @ 0x200004C0) -- Updating C cache (64 bytes @ 0x200004C0) -- Read from C cache (9 bytes @ 0x200004D0) - Data: FF FF FF FF FF FF FF FF FF  returns 0x00 (0001ms, 0278ms total)
T2EC4 001:569 JLINK_SetBPEx(Addr = 0x08004810, Type = 0xFFFFFFF2)  returns 0x00000001 (0000ms, 0278ms total)
T2EC4 001:569 JLINK_Go() -- CPU_WriteMem(4 bytes @ 0xE0002000) -- CPU_ReadMem(4 bytes @ 0xE0001000) -- CPU_WriteMem(4 bytes @ 0xE0002008) -- CPU_WriteMem(4 bytes @ 0xE000200C) -- CPU_WriteMem(4 bytes @ 0xE0002010) -- CPU_WriteMem(4 bytes @ 0xE0002014) -- CPU_WriteMem(4 bytes @ 0xE0002018) -- CPU_WriteMem(4 bytes @ 0xE000201C) -- CPU_WriteMem(4 bytes @ 0xE0001004) (0004ms, 0282ms total)
T2EC4 001:674 JLINK_IsHalted()  returns TRUE (0002ms, 0284ms total)
T2EC4 001:676 JLINK_Halt()  returns 0x00 (0000ms, 0282ms total)
T2EC4 001:676 JLINK_IsHalted()  returns TRUE (0000ms, 0282ms total)
T2EC4 001:676 JLINK_IsHalted()  returns TRUE (0000ms, 0282ms total)
T2EC4 001:676 JLINK_IsHalted()  returns TRUE (0000ms, 0282ms total)
T2EC4 001:676 JLINK_ReadReg(R15 (PC))  returns 0x08004810 (0000ms, 0282ms total)
T2EC4 001:676 JLINK_ReadReg(XPSR)  returns 0x61000000 (0000ms, 0282ms total)
T2EC4 001:676 JLINK_ClrBPEx(BPHandle = 0x00000001)  returns 0x00 (0000ms, 0282ms total)
T2EC4 001:676 JLINK_ReadMemU32(0xE000ED30, 0x0001 Items, ...) -- CPU_ReadMem(4 bytes @ 0xE000ED30) - Data: 02 00 00 00  returns 0x01 (0000ms, 0282ms total)
T2EC4 001:676 JLINK_ReadMemU32(0xE0001028, 0x0001 Items, ...) -- CPU_ReadMem(4 bytes @ 0xE0001028) - Data: 00 00 00 00  returns 0x01 (0001ms, 0283ms total)
T2EC4 001:677 JLINK_ReadMemU32(0xE0001038, 0x0001 Items, ...) -- CPU_ReadMem(4 bytes @ 0xE0001038) - Data: 00 02 00 00  returns 0x01 (0000ms, 0283ms total)
T2EC4 001:677 JLINK_ReadMemU32(0xE0001048, 0x0001 Items, ...) -- CPU_ReadMem(4 bytes @ 0xE0001048) - Data: 00 00 00 00  returns 0x01 (0001ms, 0284ms total)
T2EC4 001:678 JLINK_ReadMemU32(0xE0001058, 0x0001 Items, ...) -- CPU_ReadMem(4 bytes @ 0xE0001058) - Data: 00 00 00 00  returns 0x01 (0000ms, 0284ms total)
T2EC4 001:678 JLINK_ReadReg(R0)  returns 0x08004811 (0000ms, 0284ms total)
T2EC4 001:678 JLINK_ReadReg(R1)  returns 0x20001710 (0000ms, 0284ms total)
T2EC4 001:678 JLINK_ReadReg(R2)  returns 0x00000000 (0000ms, 0284ms total)
T2EC4 001:678 JLINK_ReadReg(R3)  returns 0x080031C3 (0000ms, 0284ms total)
T2EC4 001:678 JLINK_ReadReg(R4)  returns 0x08004D14 (0000ms, 0284ms total)
T2EC4 001:678 JLINK_ReadReg(R5)  returns 0x08004D14 (0000ms, 0284ms total)
T2EC4 001:678 JLINK_ReadReg(R6)  returns 0x20030001 (0000ms, 0284ms total)
T2EC4 001:678 JLINK_ReadReg(R7)  returns 0x40013800 (0000ms, 0284ms total)
T2EC4 001:678 JLINK_ReadReg(R8)  returns 0x00000000 (0000ms, 0284ms total)
T2EC4 001:678 JLINK_ReadReg(R9)  returns 0x00000000 (0000ms, 0284ms total)
T2EC4 001:678 JLINK_ReadReg(R10)  returns 0x00000000 (0000ms, 0284ms total)
T2EC4 001:678 JLINK_ReadReg(R11)  returns 0x00000000 (0000ms, 0284ms total)
T2EC4 001:678 JLINK_ReadReg(R12)  returns 0x00000000 (0000ms, 0284ms total)
T2EC4 001:678 JLINK_ReadReg(R13 (SP))  returns 0x20001710 (0000ms, 0284ms total)
T2EC4 001:678 JLINK_ReadReg(R14)  returns 0x08000225 (0000ms, 0284ms total)
T2EC4 001:678 JLINK_ReadReg(R15 (PC))  returns 0x08004810 (0000ms, 0284ms total)
T2EC4 001:679 JLINK_ReadReg(XPSR)  returns 0x61000000 (0000ms, 0284ms total)
T2EC4 001:679 JLINK_ReadReg(MSP)  returns 0x20001710 (0000ms, 0284ms total)
T2EC4 001:679 JLINK_ReadReg(PSP)  returns 0x00000000 (0000ms, 0284ms total)
T2EC4 001:679 JLINK_ReadReg(CFBP)  returns 0x00000000 (0000ms, 0284ms total)
T2EC4 001:679 JLINK_ReadReg(FPSCR)  returns 0x00000000 (0003ms, 0287ms total)
T2EC4 001:682 JLINK_ReadReg(FPS0)  returns 0x00000000 (0000ms, 0287ms total)
T2EC4 001:682 JLINK_ReadReg(FPS1)  returns 0x00000000 (0000ms, 0287ms total)
T2EC4 001:682 JLINK_ReadReg(FPS2)  returns 0x00000000 (0000ms, 0287ms total)
T2EC4 001:682 JLINK_ReadReg(FPS3)  returns 0x00000000 (0000ms, 0287ms total)
T2EC4 001:682 JLINK_ReadReg(FPS4)  returns 0x00000000 (0000ms, 0287ms total)
T2EC4 001:682 JLINK_ReadReg(FPS5)  returns 0x00000000 (0000ms, 0287ms total)
T2EC4 001:682 JLINK_ReadReg(FPS6)  returns 0x00000000 (0000ms, 0287ms total)
T2EC4 001:682 JLINK_ReadReg(FPS7)  returns 0x00000000 (0000ms, 0287ms total)
T2EC4 001:682 JLINK_ReadReg(FPS8)  returns 0x00000000 (0000ms, 0287ms total)
T2EC4 001:682 JLINK_ReadReg(FPS9)  returns 0x00000000 (0000ms, 0287ms total)
T2EC4 001:682 JLINK_ReadReg(FPS10)  returns 0x00000000 (0000ms, 0287ms total)
T2EC4 001:682 JLINK_ReadReg(FPS11)  returns 0x00000000 (0000ms, 0287ms total)
T2EC4 001:682 JLINK_ReadReg(FPS12)  returns 0x00000000 (0000ms, 0287ms total)
T2EC4 001:682 JLINK_ReadReg(FPS13)  returns 0x00000000 (0000ms, 0287ms total)
T2EC4 001:682 JLINK_ReadReg(FPS14)  returns 0x00000000 (0000ms, 0287ms total)
T2EC4 001:682 JLINK_ReadReg(FPS15)  returns 0x00000000 (0000ms, 0287ms total)
T2EC4 001:682 JLINK_ReadReg(FPS16)  returns 0x00000000 (0000ms, 0287ms total)
T2EC4 001:682 JLINK_ReadReg(FPS17)  returns 0x00000000 (0000ms, 0287ms total)
T2EC4 001:682 JLINK_ReadReg(FPS18)  returns 0x00000000 (0000ms, 0287ms total)
T2EC4 001:682 JLINK_ReadReg(FPS19)  returns 0x00000000 (0000ms, 0287ms total)
T2EC4 001:682 JLINK_ReadReg(FPS20)  returns 0x00000000 (0000ms, 0287ms total)
T2EC4 001:682 JLINK_ReadReg(FPS21)  returns 0x00000000 (0000ms, 0287ms total)
T2EC4 001:682 JLINK_ReadReg(FPS22)  returns 0x00000000 (0000ms, 0287ms total)
T2EC4 001:682 JLINK_ReadReg(FPS23)  returns 0x00000000 (0000ms, 0287ms total)
T2EC4 001:682 JLINK_ReadReg(FPS24)  returns 0x00000000 (0000ms, 0287ms total)
T2EC4 001:682 JLINK_ReadReg(FPS25)  returns 0x00000000 (0000ms, 0287ms total)
T2EC4 001:682 JLINK_ReadReg(FPS26)  returns 0x00000000 (0000ms, 0287ms total)
T2EC4 001:682 JLINK_ReadReg(FPS27)  returns 0x00000000 (0000ms, 0287ms total)
T2EC4 001:682 JLINK_ReadReg(FPS28)  returns 0x00000000 (0000ms, 0287ms total)
T2EC4 001:682 JLINK_ReadReg(FPS29)  returns 0x00000000 (0000ms, 0287ms total)
T2EC4 001:682 JLINK_ReadReg(FPS30)  returns 0x00000000 (0000ms, 0287ms total)
T2EC4 001:682 JLINK_ReadReg(FPS31)  returns 0x00000000 (0000ms, 0287ms total)
T2694 001:683 JLINK_ReadMem (0x200016E4, 0x0004 Bytes, ...) -- CPU_ReadMem(64 bytes @ 0x200016C0) -- Updating C cache (64 bytes @ 0x200016C0) -- Read from C cache (4 bytes @ 0x200016E4) - Data: 00 00 00 00  returns 0x00 (0001ms, 0288ms total)
T2694 001:684 JLINK_ReadMem (0x200016E8, 0x0004 Bytes, ...) -- Read from C cache (4 bytes @ 0x200016E8) - Data: 00 00 00 00  returns 0x00 (0000ms, 0288ms total)
T2694 001:684 JLINK_ReadMem (0x00000000, 0x0001 Bytes, ...) -- CPU_ReadMem(4 bytes @ 0x00000004) -- CPU_ReadMem(64 bytes @ 0x1FFF0000) -- Updating C cache (64 bytes @ 0x1FFF0000) -- Read from C cache (1 bytes @ 0x1FFF0000) - Data: 40  returns 0x00 (0001ms, 0289ms total)
T2694 001:685 JLINK_ReadMem (0x200016EC, 0x0020 Bytes, ...) -- CPU_ReadMem(64 bytes @ 0x20001700) -- Updating C cache (64 bytes @ 0x20001700) -- Read from C cache (32 bytes @ 0x200016EC) - Data: 00 00 00 00 00 00 00 00 00 00 00 00 00 00 00 00 ...  returns 0x00 (0001ms, 0290ms total)
T2694 001:686 JLINK_ReadMem (0x20001680, 0x0020 Bytes, ...) -- CPU_ReadMem(64 bytes @ 0x20001680) -- Updating C cache (64 bytes @ 0x20001680) -- Read from C cache (32 bytes @ 0x20001680) - Data: 00 00 00 00 00 00 00 00 00 00 00 00 00 00 00 00 ...  returns 0x00 (0001ms, 0291ms total)
T2694 001:692 JLINK_ReadMem (0x2000001D, 0x0001 Bytes, ...) -- CPU_ReadMem(64 bytes @ 0x20000000) -- Updating C cache (64 bytes @ 0x20000000) -- Read from C cache (1 bytes @ 0x2000001D) - Data: 00  returns 0x00 (0001ms, 0292ms total)
T2694 001:693 JLINK_ReadMem (0x20000004, 0x0004 Bytes, ...) -- Read from C cache (4 bytes @ 0x20000004) - Data: 00 00 00 00  returns 0x00 (0000ms, 0292ms total)
T2694 001:693 JLINK_ReadMem (0x20000008, 0x0004 Bytes, ...) -- Read from C cache (4 bytes @ 0x20000008) - Data: 00 00 00 00  returns 0x00 (0000ms, 0292ms total)
T2694 001:694 JLINK_ReadMem (0x200004D0, 0x0009 Bytes, ...) -- CPU_ReadMem(64 bytes @ 0x200004C0) -- Updating C cache (64 bytes @ 0x200004C0) -- Read from C cache (9 bytes @ 0x200004D0) - Data: 00 00 00 00 00 00 00 00 00  returns 0x00 (0001ms, 0293ms total)
T2694 001:695 JLINK_ReadMem (0x40013000, 0x0020 Bytes, ...) -- CPU_ReadMem(32 bytes @ 0x40013000) - Data: 00 00 00 00 00 00 00 00 00 00 00 00 00 00 00 00 ...  returns 0x00 (0000ms, 0293ms total)
T2694 001:695 JLINK_ReadMem (0x40013020, 0x0004 Bytes, ...) -- CPU_ReadMem(4 bytes @ 0x40013020) - Data: 00 00 00 00  returns 0x00 (0001ms, 0294ms total)
T2694 002:043 JLINK_SetResetType(JLINKARM_CM3_RESET_TYPE_NORMAL)  returns JLINKARM_CM3_RESET_TYPE_NORMAL (0000ms, 0294ms total)
T2694 002:043 JLINK_Reset() -- CPU_WriteMem(4 bytes @ 0xE000EDF0) -- CPU_WriteMem(4 bytes @ 0xE000EDFC) >0x35 TIF> -- CPU_WriteMem(4 bytes @ 0xE000ED0C) -- CPU_ReadMem(4 bytes @ 0xE000EDF0) -- CPU_ReadMem(4 bytes @ 0xE000EDF0) -- CPU_WriteMem(4 bytes @ 0xE000EDF0) -- CPU_WriteMem(4 bytes @ 0xE000EDFC) -- CPU is running -- CPU_ReadMem(4 bytes @ 0xE000EDF0) -- CPU_WriteMem(4 bytes @ 0xE0002000) -- CPU_ReadMem(4 bytes @ 0xE000EDFC) -- CPU_ReadMem(4 bytes @ 0xE0001000) (0020ms, 0314ms total)
T2694 002:063 JLINK_ReadReg(R15 (PC))  returns 0x1FFF5162 (0000ms, 0314ms total)
T2694 002:063 JLINK_ReadReg(XPSR)  returns 0x01000000 (0000ms, 0314ms total)
T2694 002:064 JLINK_ReadMem (0x1FFF5162, 0x0002 Bytes, ...) -- CPU_ReadMem(64 bytes @ 0x1FFF5140) -- Updating C cache (64 bytes @ 0x1FFF5140) -- Read from C cache (2 bytes @ 0x1FFF5162) - Data: C0 46  returns 0x00 (0001ms, 0315ms total)
T2694 002:065 JLINK_ReadMem (0x1FFF5164, 0x003C Bytes, ...) -- CPU_ReadMem(64 bytes @ 0x1FFF5180) -- Updating C cache (64 bytes @ 0x1FFF5180) -- Read from C cache (60 bytes @ 0x1FFF5164) - Data: C0 46 C0 46 C0 46 FF F7 E5 FF FD F7 7F B9 FF F7 ...  returns 0x00 (0001ms, 0316ms total)
T2694 002:073 JLINK_ReadMem (0x2000001D, 0x0001 Bytes, ...) -- CPU_ReadMem(64 bytes @ 0x20000000) -- Updating C cache (64 bytes @ 0x20000000) -- Read from C cache (1 bytes @ 0x2000001D) - Data: 00  returns 0x00 (0002ms, 0318ms total)
T2694 002:075 JLINK_ReadMem (0x20000004, 0x0004 Bytes, ...) -- Read from C cache (4 bytes @ 0x20000004) - Data: 00 00 00 00  returns 0x00 (0000ms, 0318ms total)
T2694 002:075 JLINK_ReadMem (0x20000008, 0x0004 Bytes, ...) -- Read from C cache (4 bytes @ 0x20000008) - Data: 00 00 00 00  returns 0x00 (0000ms, 0318ms total)
T2694 002:075 JLINK_ReadMem (0x200004D0, 0x0009 Bytes, ...) -- CPU_ReadMem(64 bytes @ 0x200004C0) -- Updating C cache (64 bytes @ 0x200004C0) -- Read from C cache (9 bytes @ 0x200004D0) - Data: 00 00 00 00 00 00 00 00 00  returns 0x00 (0001ms, 0319ms total)
T2EC4 002:587 JLINK_Go() -- CPU_ReadMem(4 bytes @ 0xE0001000) -- CPU_WriteMem(4 bytes @ 0xE0002008) -- CPU_WriteMem(4 bytes @ 0xE000200C) -- CPU_WriteMem(4 bytes @ 0xE0002010) -- CPU_WriteMem(4 bytes @ 0xE0002014) -- CPU_WriteMem(4 bytes @ 0xE0002018) -- CPU_WriteMem(4 bytes @ 0xE000201C) -- CPU_WriteMem(4 bytes @ 0xE0001004) (0003ms, 0322ms total)
T2EC4 002:691 JLINK_IsHalted()  returns FALSE (0000ms, 0322ms total)
T2EC4 002:792 JLINK_IsHalted()  returns FALSE (0001ms, 0323ms total)
T2EC4 002:893 JLINK_IsHalted()  returns FALSE (0000ms, 0322ms total)
T2EC4 002:994 JLINK_IsHalted()  returns FALSE (0000ms, 0322ms total)
T2EC4 003:095 JLINK_IsHalted()  returns FALSE (0000ms, 0322ms total)
T2EC4 003:197 JLINK_ReadMemU32(0xE0001004, 0x0001 Items, ...) -- CPU is running -- CPU_ReadMem(4 bytes @ 0xE0001004) - Data: B7 03 70 06  returns 0x01 (0000ms, 0322ms total)
